Circuit: * D:\Users\Bill\Documents\UoM\Year5\Sem2\ESD\Workshops\DSO\FrontEnd_spice\front_end.asc

Direct Newton iteration failed to find .op point.  (Use ".option noopiter" to skip.)
Starting Gmin stepping
Gmin = 10
Gmin = 1.07374
vernier = 0.5
vernier = 0.25
vernier = 0.125
vernier = 0.0625
vernier = 0.03125
Gmin = 1.0412
vernier = 0.015625
vernier = 0.0078125
Gmin = 1.0132
vernier = 0.00390625
vernier = 0.00195313
Gmin = 1.00827
vernier = 0.00260417
vernier = 0.00130208
Gmin = 1.00515
vernier = 0.000651042
vernier = 0.000868055
vernier = 0.000434028
Gmin = 1.00434
vernier = 0.000578703
vernier = 0.000434027
Gmin = 1.00339
Gmin = 0
Gmin stepping failed

Starting source stepping with srcstepmethod=0
Source Step = 3.0303%
Source Step = 33.3333%
Source Step = 63.6364%
Source Step = 93.9394%
Source stepping succeeded in finding the operating point.

Semiconductor Device Operating Points:
                        --- Diodes ---
Name:    d:u4:1      d:u4:7      d:u4:3      d:u4:4      d:u4:2
Model:   u4:dnl      u4:dls       u4:dc     u4:dbias    u4:dbias
Id:      1.24e-06   -1.83e-19    6.29e-03    1.50e-06    1.50e-06
Vd:      1.24e-02   -1.83e-07    1.00e+01    2.00e+00    2.00e+00
Req:     1.00e-04    1.00e-12    1.00e-02    1.00e-05    1.00e-05
CAP:     0.00e+00    0.00e+00    0.00e+00    0.00e+00    0.00e+00

Name:    d:u4:6      d:u4:5      d:u3:1      d:u3:7      d:u3:3
Model:    u4:yd       u4:yu      u3:dnl      u3:dls       u3:dc
Id:     -9.15e-14    9.15e-14    1.02e-06   -1.04e-19    6.29e-03
Vd:     -9.14e-02    9.14e-02    1.02e-02   -1.04e-07    1.00e+01
Req:     1.00e-12    1.00e-12    1.00e-04    1.00e-12    1.00e-02
CAP:     0.00e+00    0.00e+00    0.00e+00    0.00e+00    0.00e+00

Name:    d:u3:4      d:u3:2      d:u3:6      d:u3:5      d:u2:1
Model:  u3:dbias    u3:dbias      u3:yd       u3:yu      u2:dnl
Id:      1.50e-06    1.50e-06   -5.18e-14    5.18e-14   -2.57e-07
Vd:      3.43e+00    3.43e+00   -5.17e-02    5.17e-02   -2.57e-03
Req:     1.00e-05    1.00e-05    1.00e-12    1.00e-12    1.00e-04
CAP:     0.00e+00    0.00e+00    0.00e+00    0.00e+00    0.00e+00

Name:    d:u2:7      d:u2:3      d:u2:4      d:u2:2      d:u2:6
Model:   u2:dls       u2:dc     u2:dbias    u2:dbias      u2:yd
Id:      2.93e-19    6.29e-03    1.50e-06    1.50e-06    1.47e-13
Vd:      2.93e-07    1.00e+01    5.00e+00    5.00e+00    1.46e-01
Req:     1.00e-12    1.00e-02    1.00e-05    1.00e-05    1.00e-12
CAP:     0.00e+00    0.00e+00    0.00e+00    0.00e+00    0.00e+00

Name:    d:u2:5      d:u1:1      d:u1:7      d:u1:3      d:u1:4
Model:    u2:yu      u1:dnl      u1:dls       u1:dc     u1:dbias
Id:     -1.47e-13    2.24e-07   -1.26e-19    6.29e-03    1.50e-06
Vd:     -1.46e-01    2.24e-03   -1.26e-07    1.00e+01    4.50e+00
Req:     1.00e-12    1.00e-04    1.00e-12    1.00e-02    1.00e-05
CAP:     0.00e+00    0.00e+00    0.00e+00    0.00e+00    0.00e+00

Name:    d:u1:2      d:u1:6      d:u1:5        d2          d1
Model:  u1:dbias      u1:yd       u1:yu      1n4148      1n4148
Id:      1.50e-06   -6.29e-14    6.29e-14   -2.53e-09   -2.52e-09
Vd:      4.50e+00   -6.29e-02    6.29e-02   -5.00e+00   -5.00e+00
Req:     1.00e-05    1.00e-12    1.00e-12    1.00e+12    1.00e+12
CAP:     0.00e+00    0.00e+00    0.00e+00    1.95e-12    1.95e-12

                        --- VDMOSFET Transistors ---
Name:        m:u4:2      m:u4:1      m:u3:2      m:u3:1      m:u2:2
Model:        u4:p        u4:n        u3:p        u3:n        u2:p
Id:         -1.11e-05    7.14e-03   -3.50e-04    4.49e-03   -9.11e-03
Vgs:         9.14e-02    9.14e-02    5.17e-02    5.17e-02   -1.46e-01
Vds:        -8.00e+00    2.00e+00   -7.50e+00    2.50e+00   -4.50e+00
Vth:         1.00e-01   -1.00e-01    1.00e-01   -1.00e-01    1.00e-01
Gm:          2.58e-03    7.46e-02    1.45e-02    5.92e-02    7.39e-02
Gds:         0.00e+00    0.00e+00    0.00e+00    0.00e+00    0.00e+00
Cgs:         0.00e+00    0.00e+00    0.00e+00    0.00e+00    0.00e+00
Cgd:         0.00e+00    0.00e+00    0.00e+00    0.00e+00    0.00e+00
Cbody:       0.00e+00    0.00e+00    0.00e+00    0.00e+00    0.00e+00

Name:        m:u2:1      m:u1:2      m:u1:1
Model:        u2:n        u1:p        u1:n
Id:          5.51e-12   -2.07e-04    5.17e-03
Vgs:        -1.46e-01    6.29e-02    6.29e-02
Vds:         5.50e+00   -5.50e+00    4.50e+00
Vth:        -1.00e-01    1.00e-01   -1.00e-01
Gm:          0.00e+00    1.11e-02    6.35e-02
Gds:         0.00e+00    0.00e+00    0.00e+00
Cgs:         0.00e+00    0.00e+00    0.00e+00
Cgd:         0.00e+00    0.00e+00    0.00e+00
Cbody:       0.00e+00    0.00e+00    0.00e+00



Date: Thu Sep 05 23:39:27 2019
Total elapsed time: 0.573 seconds.

tnom = 27
temp = 27
method = trap
totiter = 4846
traniter = 0
tranpoints = 0
accept = 0
rejected = 0
matrix size = 43
fillins = 61
solver = Normal

